
**** 07/03/23 18:54:54 **** PSpice 22.1.0 (6 October 2022) **** ID# 0 ********

 ** Profile: "SCHEMATIC1-sim_MontCarl"  [ C:\Users\maria\OneDrive - Technical University of Cluj-Napoca\Desktop\PROIECT_CAD_UwU\Nasca


 ****     CIRCUIT DESCRIPTION


******************************************************************************




** Creating circuit file "sim_MontCarl.cir" 
** WARNING: THIS AUTOMATICALLY GENERATED FILE MAY BE OVERWRITTEN BY SUBSEQUENT SIMULATIONS

*Libraries: 
* Profile Libraries :
* Local Libraries :
* From [PSPICE NETLIST] section of C:\SPB_Data\cdssetup\OrCAD_PSpice\22.1.0\PSpice.ini file:
.lib "C:\Users\maria\OneDrive - Technical University of Cluj-Napoca\Desktop\PROIECT_CAD_UwU\NascaMarianProiectCAD-PSpiceFiles\SCHEM"
+ "ATIC1\DiodaAlbastra.lib" 
.lib "nom.lib" 

*Analysis directives: 
.TRAN  0 10ms 0 
.MC 20 TRAN V([OUT]) YMAX OUTPUT ALL SEED=400 
.OPTIONS ADVCONV
.PROBE64 V(alias(*)) I(alias(*)) W(alias(*)) D(alias(*)) NOISE(alias(*)) 
.INC "..\SCHEMATIC1.net" 



**** INCLUDING SCHEMATIC1.net ****
* source NASCAMARIANPROIECTCAD
.EXTERNAL OUTPUT +VCC
.EXTERNAL OUTPUT -VCC
Q_Q1         N14397 N14397 +VCC Q2SA562
Q_Q2         N14486 N14397 +VCC Q2SA562
R_RezistentaSenzor         0 N14486 R_RezistentaSenzor {r} TC=0,0 
.model        R_RezistentaSenzor RES R=1 DEV=0.5% TC1=0 TC2=0
V_V1         +VCC 0 15Vdc
V_V2         -VCC 0 -15Vdc
X_U2         N15935 VREF +VCC -VCC VREF LM118
R_R6         +VCC N15935 R_R6 1.04k TC=0,0 
.model        R_R6 RES R=1 DEV=0.5% TC1=0 TC2=0
R_R7         0 N15935 R_R7 1.06k TC=0,0 
.model        R_R7 RES R=1 DEV=0.5% TC1=0 TC2=0
X_U3         N16344 N16580 +VCC -VCC OUT LM118
R_R4         N15621 N16344 R_R4 2k TC=0,0 
.model        R_R4 RES R=1 DEV=0.5% TC1=0 TC2=0
R_R5         0 N16344  4.7k TC=0,0 
R_R3         N16580 OUT R_R3 4.7k TC=0,0 
.model        R_R3 RES R=1 DEV=0.5% TC1=0 TC2=0
R_R2         VREF N16580 R_R2 2k TC=0,0 
.model        R_R2 RES R=1 DEV=0.5% TC1=0 TC2=0
X_U4         N14486 N15621 +VCC -VCC N15621 LM118
X_U5         N18284 OUT +VCC -VCC OUT2 LM118
R_R11         0 N18090 R_R11 10 TC=0,0 
.model        R_R11 RES R=1 DEV=0.5% TC1=0 TC2=0
R_R10         +VCC N18090 R_R10 3.97 TC=0,0 
.model        R_R10 RES R=1 DEV=0.5% TC1=0 TC2=0
X_U6         N18090 VREF2 +VCC -VCC VREF2 LM118
R_R8         VREF2 N18284 R_R8 1k TC=0,0 
.model        R_R8 RES R=1 DEV=0.5% TC1=0 TC2=0
R_R9         N18284 OUT2 R_R9 4.27k TC=0,0 
.model        R_R9 RES R=1 DEV=0.5% TC1=0 TC2=0
V_V3         N18859 0 15V
D_D1         N18859 N18863 DiodaAlbastra 
R_RdiodaTest         0 N18863  630 TC=0,0 
R_R12         OUT2 N20331 R_R12 402 TC=0,0 
.model        R_R12 RES R=1 DEV=0.5% TC1=0 TC2=0
D_D2         N198520 0 DiodaAlbastra 
Q_Q3         N20016 N20012 0 Q2N1566
R_RLimitare         OUT2 N20012 R_RLimitare 1k TC=0,0 
.model        R_RLimitare RES R=1 DEV=0.5% TC1=0 TC2=0
R_R14         N20016 +VCC R_R14 3.4k TC=0,0 
.model        R_R14 RES R=1 DEV=0.5% TC1=0 TC2=0
R_R13         N20331 N198520 R_R13 229 TC=0,0 
.model        R_R13 RES R=1 DEV=0.5% TC1=0 TC2=0
R_R0         N204421 N14397 R_R0 20k TC=0,0 
.model        R_R0 RES R=1 DEV=0.5% TC1=0 TC2=0
R_R1         0 N204421 R_R1 6.49k TC=0,0 
.model        R_R1 RES R=1 DEV=0.5% TC1=0 TC2=0
.PARAM  r=14k

**** RESUMING sim_MontCarl.cir ****
.END

**** 07/03/23 18:54:54 **** PSpice 22.1.0 (6 October 2022) **** ID# 0 ********

 ** Profile: "SCHEMATIC1-sim_MontCarl"  [ C:\Users\maria\OneDrive - Technical University of Cluj-Napoca\Desktop\PROIECT_CAD_UwU\Nasca


 ****     Diode MODEL PARAMETERS


******************************************************************************




               DiodaAlbastra   X_U2.dx         X_U2.dy         X_U3.dx         
          IS   47.006000E-21  800.000000E-18  800.000000E-18  800.000000E-18 
           N    2.8335                                                       
          RS   15.45            1               1.000000E-03    1            
         CJO                                   10.000000E-12                 


               X_U3.dy         X_U4.dx         X_U4.dy         X_U5.dx         
          IS  800.000000E-18  800.000000E-18  800.000000E-18  800.000000E-18 
          RS    1.000000E-03    1               1.000000E-03    1            
         CJO   10.000000E-12                   10.000000E-12                 


               X_U5.dy         X_U6.dx         X_U6.dy         
          IS  800.000000E-18  800.000000E-18  800.000000E-18 
          RS    1.000000E-03    1               1.000000E-03 
         CJO   10.000000E-12                   10.000000E-12 


**** 07/03/23 18:54:54 **** PSpice 22.1.0 (6 October 2022) **** ID# 0 ********

 ** Profile: "SCHEMATIC1-sim_MontCarl"  [ C:\Users\maria\OneDrive - Technical University of Cluj-Napoca\Desktop\PROIECT_CAD_UwU\Nasca


 ****     BJT MODEL PARAMETERS


******************************************************************************




               Q2SA562         Q2N1566         X_U2.qx         X_U3.qx         
               PNP             NPN             NPN             NPN             
       LEVEL    1               1               1               1            
          IS    2.148000E-12   14.340000E-15  800.000000E-18  800.000000E-18 
          BF  162.9           173.4             5.833000E+03    5.833000E+03 
          NF    1               1               1               1            
         VAF  100              74.03                                         
         IKF     .8773           .2689                                       
         ISE    5.013000E-12   14.340000E-15                                 
          NE    1.655           1.272                                        
          BR   10.18            6.458           1               1            
          NR    1               1               1               1            
         VAR  100                                                            
         IKR    1.838                                                        
         ISC   28.010000E-12                                                 
          NC    1.288                                                        
          NK     .5629                                                       
         ISS    0               0               0               0            
          RB                   10                                            
          RE    0               0               0               0            
          RC     .4968          1               0               0            
         CJE    5.000000E-12   22.010000E-12    0               0            
         VJE     .75             .75             .75             .75         
         MJE     .3333           .377                                        
         CJC   27.040000E-12    9.393000E-12    0               0            
         VJC     .75             .75             .75             .75         
         MJC     .3333           .3416           .33             .33         
        XCJC    1               1               1               1            
         CJS    0               0               0               0            
         VJS     .75             .75             .75             .75         
          TF  767.900000E-12  409.700000E-12                                 
         XTF                    3                                            
         VTF   10               1.7                                          
         ITF    1                .6                                          
          TR   10.000000E-09   48.390000E-09                                 
         XTB    1.5             1.5                                          
          KF    0               0               0               0            
          AF    1               1               1               1            
          CN    2.2             2.42            2.42            2.42         
           D     .52             .87             .87             .87         


               X_U4.qx         X_U5.qx         X_U6.qx         
               NPN             NPN             NPN             
       LEVEL    1               1               1            
          IS  800.000000E-18  800.000000E-18  800.000000E-18 
          BF    5.833000E+03    5.833000E+03    5.833000E+03 
          NF    1               1               1            
          BR    1               1               1            
          NR    1               1               1            
         ISS    0               0               0            
          RE    0               0               0            
          RC    0               0               0            
         CJE    0               0               0            
         VJE     .75             .75             .75         
         CJC    0               0               0            
         VJC     .75             .75             .75         
         MJC     .33             .33             .33         
        XCJC    1               1               1            
         CJS    0               0               0            
         VJS     .75             .75             .75         
          KF    0               0               0            
          AF    1               1               1            
          CN    2.42            2.42            2.42         
           D     .87             .87             .87         


**** 07/03/23 18:54:54 **** PSpice 22.1.0 (6 October 2022) **** ID# 0 ********

 ** Profile: "SCHEMATIC1-sim_MontCarl"  [ C:\Users\maria\OneDrive - Technical University of Cluj-Napoca\Desktop\PROIECT_CAD_UwU\Nasca


 ****     Resistor MODEL PARAMETERS


******************************************************************************




               R_RezistentaSenzor              R_R6            R_R7            
           R    1                               1               1            


               R_R4            R_R3            R_R2            R_R11           
           R    1               1               1               1            


               R_R10           R_R8            R_R9            R_R12           
           R    1               1               1               1            


               R_RLimitare     R_R14           R_R13           R_R0            
           R    1               1               1               1            


               R_R1            
           R    1            


**** 07/03/23 18:54:54 **** PSpice 22.1.0 (6 October 2022) **** ID# 0 ********

 ** Profile: "SCHEMATIC1-sim_MontCarl"  [ C:\Users\maria\OneDrive - Technical University of Cluj-Napoca\Desktop\PROIECT_CAD_UwU\Nasca


 ****     INITIAL TRANSIENT SOLUTION       TEMPERATURE =   27.000 DEG C

                      MONTE CARLO NOMINAL

******************************************************************************



 NODE   VOLTAGE     NODE   VOLTAGE     NODE   VOLTAGE     NODE   VOLTAGE


(  OUT)    1.1047  ( +VCC)   15.0000  ( -VCC)  -15.0000  ( OUT2)   11.0280      

( VREF)    7.5713  (VREF2)   10.7370  (N14397)   14.5000 (N14486)    8.0415     

(N15621)    8.0414 (N15935)    7.5714 (N16344)    5.6408 (N16580)    5.6408     

(N18090)   10.7370 (N18284)   10.7920 (N18859)   15.0000 (N18863)   11.7420     

(N20012)     .8605 (N20016)     .0109 (N20331)    5.9987 (X_U2.6)    -.0480     

(X_U2.7)    7.6195 (X_U2.8)    7.6195 (X_U2.9)    0.0000 (X_U3.6)    -.0065     

(X_U3.7)    1.0564 (X_U3.8)    1.0564 (X_U3.9)    0.0000 (X_U4.6)    -.0511     

(X_U4.7)    8.1014 (X_U4.8)    8.1014 (X_U4.9)    0.0000 (X_U5.6) -146.8800     

(X_U5.7)   12.1650 (X_U5.8)   12.1650 (X_U5.9)    0.0000 (X_U6.6)    -.0675     

(X_U6.7)   10.7340 (X_U6.8)   10.7340 (X_U6.9)    0.0000 (N198520)    3.1337    

(N204421)    3.5524                   (X_U2.10)    6.8284                       

(X_U2.11)   14.9420                   (X_U2.12)   14.9420                       

(X_U2.13)    6.8592                   (X_U2.14)    6.8593                       

(X_U2.53)   13.0000                   (X_U2.54)  -13.0000                       

(X_U2.90)     .9654                   (X_U2.91)   22.0000                       

(X_U2.92)  -22.0000                   (X_U2.99)    0.0000                       

(X_U3.10)    4.8984                   (X_U3.11)   14.9430                       

(X_U3.12)   14.9430                   (X_U3.13)    4.9290                       

(X_U3.14)    4.9290                   (X_U3.53)   13.0000                       

(X_U3.54)  -13.0000                   (X_U3.90)    -.9651                       

(X_U3.91)   22.0000                   (X_U3.92)  -22.0000                       

(X_U3.99)    0.0000                   (X_U4.10)    7.2984                       

(X_U4.11)   14.9420                   (X_U4.12)   14.9420                       

(X_U4.13)    7.3293                   (X_U4.14)    7.3294                       

(X_U4.53)   13.0000                   (X_U4.54)  -13.0000                       

(X_U4.90)    1.2004                   (X_U4.91)   22.0000                       

(X_U4.92)  -22.0000                   (X_U4.99)    0.0000                       

(X_U5.10)    9.9991                   (X_U5.11)   15.0000                       

(X_U5.12)   14.8830                   (X_U5.13)    9.9991                       

(X_U5.14)   10.0620                   (X_U5.53)   13.0000                       

(X_U5.54)  -13.0000                   (X_U5.90)   22.7330                       

(X_U5.91)   22.0000                   (X_U5.92)  -22.0000                       

(X_U5.99)    0.0000                   (X_U6.10)    9.9934                       

(X_U6.11)   14.9420                   (X_U6.12)   14.9410                       

(X_U6.13)   10.0250                   (X_U6.14)   10.0250                       

(X_U6.53)   13.0000                   (X_U6.54)  -13.0000                       

(X_U6.90)    -.0549                   (X_U6.91)   22.0000                       

(X_U6.92)  -22.0000                   (X_U6.99)    0.0000                   




    VOLTAGE SOURCE CURRENTS
    NAME         CURRENT

    V_V1        -1.109E+00
    V_V2         2.250E-02
    V_V3        -1.864E-02
    X_U2.vb     -4.804E-07
    X_U2.vc      5.430E-12
    X_U2.ve      2.235E-11
    X_U2.vlim    9.654E-04
    X_U2.vlp    -2.104E-11
    X_U2.vln    -2.297E-11
    X_U3.vb     -6.487E-08
    X_U3.vc      1.190E-11
    X_U3.ve      1.588E-11
    X_U3.vlim   -9.651E-04
    X_U3.vlp    -2.297E-11
    X_U3.vln    -2.104E-11
    X_U4.vb     -5.110E-07
    X_U4.vc      4.959E-12
    X_U4.ve      2.282E-11
    X_U4.vlim    1.200E-03
    X_U4.vlp    -2.080E-11
    X_U4.vln    -2.320E-11
    X_U5.vb     -1.469E-03
    X_U5.vc      1.973E-12
    X_U5.ve      2.581E-11
    X_U5.vlim    2.273E-02
    X_U5.vlp     1.557E-03
    X_U5.vln    -4.474E-11
    X_U6.vb     -6.745E-07
    X_U6.vc      2.264E-12
    X_U6.ve      2.552E-11
    X_U6.vlim   -5.486E-05
    X_U6.vlp    -2.206E-11
    X_U6.vln    -2.195E-11

    TOTAL POWER DISSIPATION   1.72E+01  WATTS


**** 07/03/23 18:54:54 **** PSpice 22.1.0 (6 October 2022) **** ID# 0 ********

 ** Profile: "SCHEMATIC1-sim_MontCarl"  [ C:\Users\maria\OneDrive - Technical University of Cluj-Napoca\Desktop\PROIECT_CAD_UwU\Nasca


 ****     INITIAL TRANSIENT SOLUTION       TEMPERATURE =   27.000 DEG C

                      MONTE CARLO PASS 2

******************************************************************************



 NODE   VOLTAGE     NODE   VOLTAGE     NODE   VOLTAGE     NODE   VOLTAGE


(  OUT)    1.1909  ( +VCC)   15.0000  ( -VCC)  -15.0000  ( OUT2)   11.0030      

( VREF)    7.5629  (VREF2)   10.7490  (N14397)   14.5000 (N14486)    8.0576     

(N15621)    8.0575 (N15935)    7.5630 (N16344)    5.6500 (N16580)    5.6499     

(N18090)   10.7500 (N18284)   10.7970 (N18859)   15.0000 (N18863)   11.7420     

(N20012)     .8608 (N20016)     .0109 (N20331)    5.9864 (X_U2.6)    -.0480     

(X_U2.7)    7.6106 (X_U2.8)    7.6106 (X_U2.9)    0.0000 (X_U3.6)    -.0070     

(X_U3.7)    1.1432 (X_U3.8)    1.1432 (X_U3.9)    0.0000 (X_U4.6)    -.0512     

(X_U4.7)    8.1176 (X_U4.8)    8.1176 (X_U4.9)    0.0000 (X_U5.6) -146.8800     

(X_U5.7)   12.1390 (X_U5.8)   12.1390 (X_U5.9)    0.0000 (X_U6.6)    -.0675     

(X_U6.7)   10.7470 (X_U6.8)   10.7470 (X_U6.9)    0.0000 (N198520)    3.1335    

(N204421)    3.5627                   (X_U2.10)    6.8201                       

(X_U2.11)   14.9420                   (X_U2.12)   14.9420                       

(X_U2.13)    6.8509                   (X_U2.14)    6.8509                       

(X_U2.53)   13.0000                   (X_U2.54)  -13.0000                       

(X_U2.90)     .9535                   (X_U2.91)   22.0000                       

(X_U2.92)  -22.0000                   (X_U2.99)    0.0000                       

(X_U3.10)    4.9076                   (X_U3.11)   14.9430                       

(X_U3.12)   14.9430                   (X_U3.13)    4.9381                       

(X_U3.14)    4.9382                   (X_U3.53)   13.0000                       

(X_U3.54)  -13.0000                   (X_U3.90)    -.9533                       

(X_U3.91)   22.0000                   (X_U3.92)  -22.0000                       

(X_U3.99)    0.0000                   (X_U4.10)    7.3145                       

(X_U4.11)   14.9420                   (X_U4.12)   14.9420                       

(X_U4.13)    7.3454                   (X_U4.14)    7.3455                       

(X_U4.53)   13.0000                   (X_U4.54)  -13.0000                       

(X_U4.90)    1.2024                   (X_U4.91)   22.0000                       

(X_U4.92)  -22.0000                   (X_U4.99)    0.0000                       

(X_U5.10)   10.0040                   (X_U5.11)   15.0000                       

(X_U5.12)   14.8830                   (X_U5.13)   10.0040                       

(X_U5.14)   10.0670                   (X_U5.53)   13.0000                       

(X_U5.54)  -13.0000                   (X_U5.90)   22.7330                       

(X_U5.91)   22.0000                   (X_U5.92)  -22.0000                       

(X_U5.99)    0.0000                   (X_U6.10)   10.0060                       

(X_U6.11)   14.9420                   (X_U6.12)   14.9410                       

(X_U6.13)   10.0370                   (X_U6.14)   10.0370                       

(X_U6.53)   13.0000                   (X_U6.54)  -13.0000                       

(X_U6.90)    -.0478                   (X_U6.91)   22.0000                       

(X_U6.92)  -22.0000                   (X_U6.99)    0.0000                   




    VOLTAGE SOURCE CURRENTS
    NAME         CURRENT

    V_V1        -1.106E+00
    V_V2         2.250E-02
    V_V3        -1.864E-02
    X_U2.vb     -4.798E-07
    X_U2.vc      5.438E-12
    X_U2.ve      2.234E-11
    X_U2.vlim    9.535E-04
    X_U2.vlp    -2.105E-11
    X_U2.vln    -2.296E-11
    X_U3.vb     -7.035E-08
    X_U3.vc      1.181E-11
    X_U3.ve      1.597E-11
    X_U3.vlim   -9.533E-04
    X_U3.vlp    -2.295E-11
    X_U3.vln    -2.105E-11
    X_U4.vb     -5.120E-07
    X_U4.vc      4.943E-12
    X_U4.ve      2.284E-11
    X_U4.vlim    1.202E-03
    X_U4.vlp    -2.080E-11
    X_U4.vln    -2.320E-11
    X_U5.vb     -1.469E-03
    X_U5.vc      1.998E-12
    X_U5.ve      2.578E-11
    X_U5.vlim    2.273E-02
    X_U5.vlp     1.557E-03
    X_U5.vln    -4.474E-11
